
T24DC 000:521 SEGGER J-Link V4.90 Log File (0000ms, 0273ms total)
T24DC 000:521 DLL Compiled: Jul 28 2014 10:35:20 (0000ms, 0273ms total)
T24DC 000:521 Logging started @ 2020-01-04 17:11 (0000ms, 0273ms total)
T24DC 000:521 JLINK_SetWarnOutHandler(...) (0000ms, 0273ms total)
T24DC 000:521 JLINK_OpenEx(...)
Firmware: J-Link ARM V8 compiled Nov 28 2014 13:44:46
Hardware: V8.00
Feature(s): RDI,FlashDL,FlashBP,JFlash,GDB  returns O.K. (0278ms, 0551ms total)
T24DC 000:799 JLINK_SetErrorOutHandler(...) (0000ms, 0551ms total)
T24DC 000:800 JLINK_ExecCommand("ProjectFile = "E:\GITData\My-TEST-STM32F103\7定时器中断 -Tim8\工程模板_LED\JLinkSettings.ini"", ...)  returns 0x00 (0003ms, 0554ms total)
T24DC 000:803 JLINK_ExecCommand("Device = STM32F103RD", ...)Device "STM32F103RD" selected (384 KB flash, 64 KB RAM).  returns 0x00 (0002ms, 0556ms total)
T24DC 000:805 JLINK_ExecCommand("DisableConnectionTimeout", ...)  returns 0x01 (0000ms, 0556ms total)
T24DC 000:805 JLINK_GetHardwareVersion()  returns 0x13880 (0000ms, 0556ms total)
T24DC 000:805 JLINK_GetDLLVersion()  returns 49000 (0000ms, 0556ms total)
T24DC 000:805 JLINK_GetFirmwareString(...) (0000ms, 0556ms total)
T24DC 000:807 JLINK_GetDLLVersion()  returns 49000 (0000ms, 0556ms total)
T24DC 000:807 JLINK_GetCompileDateTime() (0000ms, 0556ms total)
T24DC 000:808 JLINK_GetFirmwareString(...) (0000ms, 0556ms total)
T24DC 000:809 JLINK_GetHardwareVersion()  returns 0x13880 (0000ms, 0556ms total)
T24DC 000:814 JLINK_TIF_Select(JLINKARM_TIF_SWD)  returns 0x00 (0005ms, 0561ms total)
T24DC 000:819 JLINK_SetSpeed(5000) (0001ms, 0562ms total)
T24DC 000:820 JLINK_GetId() >0x108 TIF>Found SWD-DP with ID 0x1BA01477 >0x0D TIF> >0x28 TIF> >0x0D TIF> >0x28 TIF> >0x0D TIF> >0x21 TIF> >0x0D TIF> >0x28 TIF> >0x0D TIF> >0x28 TIF> >0x0D TIF> >0x28 TIF> >0x0D TIF> >0x21 TIF> >0x0D TIF> >0x21 TIF> >0x0D TIF> >0x28 TIF> >0x0D TIF> >0x21 TIF> >0x0D TIF> >0x21 TIF> >0x108 TIF>Found SWD-DP with ID 0x1BA01477 >0x0D TIF> >0x21 TIF> >0x0D TIF> >0x28 TIF> >0x0D TIF> >0x28 TIF> >0x0D TIF> >0x21 TIF> >0x0D TIF> >0x28 TIF> >0x0D TIF> >0x21 TIF> >0x0D TIF> >0x21 TIF>
 >0x0D TIF> >0x21 TIF> >0x0D TIF> >0x21 TIF> >0x0D TIF> >0x28 TIF> >0x0D TIF> >0x28 TIF> >0x0D TIF> >0x21 TIF> >0x0D TIF> >0x28 TIF> >0x0D TIF> >0x28 TIF> >0x0D TIF> >0x28 TIF> >0x0D TIF> >0x21 TIF> >0x0D TIF> >0x21 TIF> >0x0D TIF> >0x28 TIF> >0x0D TIF> >0x21 TIF> >0x0D TIF> >0x21 TIF>Found Cortex-M3 r1p1, Little endian. -- CPU_WriteMem(4 bytes @ 0xE0002000) -- CPU_ReadMem(4 bytes @ 0xE000EDF0) -- CPU_ReadMem(4 bytes @ 0xE0002000)FPUnit: 6 code (BP) slots and 2 literal slots
 -- CPU_ReadMem(4 bytes @ 0xE000EDFC) -- CPU_ReadMem(4 bytes @ 0xE0001000) -- CPU_WriteMem(4 bytes @ 0xE0001000) -- CPU_ReadMem(4 bytes @ 0xE00FF010)TPIU fitted. -- CPU_ReadMem(4 bytes @ 0xE00FF014)ETM fitted. -- CPU_ReadMem(4 bytes @ 0xE00FF018) >0x0D TIF> >0x21 TIF>  returns 0x1BA01477 (0085ms, 0647ms total)
T24DC 000:905 JLINK_GetDLLVersion()  returns 49000 (0000ms, 0647ms total)
T24DC 000:905 JLINK_CORE_GetFound()  returns 0x30000FF (0000ms, 0647ms total)
T24DC 000:906 JLINK_GetDebugInfo(0x100) -- Value=0xE00FF003  returns 0x00 (0000ms, 0647ms total)
T24DC 000:906 JLINK_GetDebugInfo(0x101)  returns 0xFFFFFFFF (0000ms, 0647ms total)
T24DC 000:906 JLINK_ReadMem (0xE0041FF0, 0x0010 Bytes, ...) -- CPU is running -- CPU_ReadMem(16 bytes @ 0xE0041FF0) - Data: 0D 00 00 00 90 00 00 00 05 00 00 00 B1 00 00 00  returns 0x00 (0000ms, 0647ms total)
T24DC 000:906 JLINK_GetDebugInfo(0x102)  returns 0xFFFFFFFF (0000ms, 0647ms total)
T24DC 000:906 JLINK_GetDebugInfo(0x103)  returns 0xFFFFFFFF (0001ms, 0648ms total)
T24DC 000:907 JLINK_ReadMem (0xE0040FF0, 0x0010 Bytes, ...) -- CPU is running -- CPU_ReadMem(16 bytes @ 0xE0040FF0) - Data: 0D 00 00 00 90 00 00 00 05 00 00 00 B1 00 00 00  returns 0x00 (0000ms, 0648ms total)
T24DC 000:907 JLINK_GetDebugInfo(0x104)  returns 0xFFFFFFFF (0000ms, 0648ms total)
T24DC 000:907 JLINK_GetDebugInfo(0x105)  returns 0xFFFFFFFF (0001ms, 0649ms total)
T24DC 000:908 JLINK_GetDebugInfo(0x106)  returns 0xFFFFFFFF (0000ms, 0649ms total)
T24DC 000:908 JLINK_GetDebugInfo(0x107)  returns 0xFFFFFFFF (0000ms, 0649ms total)
T24DC 000:908 JLINK_GetDebugInfo(0x10C)  returns 0xFFFFFFFF (0000ms, 0649ms total)
T24DC 000:908 JLINK_ReadMemU32(0xE000ED00, 0x0001 Items, ...) -- CPU is running -- CPU_ReadMem(4 bytes @ 0xE000ED00) - Data: 31 C2 1F 41  returns 0x01 (0000ms, 0649ms total)
T24DC 000:908 JLINK_SetResetType(JLINKARM_RESET_TYPE_NORMAL)  returns JLINKARM_RESET_TYPE_NORMAL (0000ms, 0649ms total)
T24DC 000:908 JLINK_Reset() -- CPU is running -- CPU_WriteMem(4 bytes @ 0xE000EDF0) -- CPU is running -- CPU_WriteMem(4 bytes @ 0xE000EDFC) >0x35 TIF> -- CPU is running -- CPU_WriteMem(4 bytes @ 0xE000ED0C) -- CPU is running -- CPU_ReadMem(4 bytes @ 0xE000EDF0) -- CPU is running -- CPU_ReadMem(4 bytes @ 0xE000EDF0) -- CPU is running -- CPU_WriteMem(4 bytes @ 0xE000EDF0) -- CPU is running -- CPU_WriteMem(4 bytes @ 0xE000EDFC) -- CPU is running -- CPU_ReadMem(4 bytes @ 0xE000EDF0)
 -- CPU_WriteMem(4 bytes @ 0xE0002000) -- CPU_ReadMem(4 bytes @ 0xE000EDFC) -- CPU_ReadMem(4 bytes @ 0xE0001000) (0023ms, 0672ms total)
T24DC 000:931 JLINK_ReadReg(R15 (PC))  returns 0x080001B0 (0000ms, 0672ms total)
T24DC 000:931 JLINK_ReadReg(XPSR)  returns 0x01000000 (0000ms, 0672ms total)
T24DC 000:931 JLINK_Halt()  returns 0x00 (0000ms, 0672ms total)
T24DC 000:931 JLINK_IsHalted()  returns TRUE (0000ms, 0672ms total)
T24DC 000:931 JLINK_ReadMemU32(0xE000EDF0, 0x0001 Items, ...) -- CPU_ReadMem(4 bytes @ 0xE000EDF0) - Data: 03 00 03 00  returns 0x01 (0001ms, 0673ms total)
T24DC 000:932 JLINK_WriteU32(0xE000EDF0, 0xA05F0003) -- CPU_WriteMem(4 bytes @ 0xE000EDF0)  returns 0x00 (0001ms, 0674ms total)
T24DC 000:933 JLINK_WriteU32(0xE000EDFC, 0x01000000) -- CPU_WriteMem(4 bytes @ 0xE000EDFC)  returns 0x00 (0001ms, 0675ms total)
T24DC 000:935 JLINK_GetHWStatus(...)  returns 0x00 (0001ms, 0676ms total)
T24DC 000:937 JLINK_GetNumBPUnits(Type = 0xFFFFFF00)  returns 0x06 (0000ms, 0676ms total)
T24DC 000:937 JLINK_GetNumBPUnits(Type = 0xF0)  returns 0x2000 (0000ms, 0676ms total)
T24DC 000:937 JLINK_GetNumWPUnits()  returns 0x04 (0000ms, 0676ms total)
T24DC 000:937 JLINK_GetSpeed()  returns 0xFA0 (0000ms, 0676ms total)
T24DC 000:938 JLINK_ReadMemU32(0xE000E004, 0x0001 Items, ...) -- CPU_ReadMem(4 bytes @ 0xE000E004) - Data: 01 00 00 00  returns 0x01 (0001ms, 0677ms total)
T24DC 000:939 JLINK_ReadMemU32(0xE000E004, 0x0001 Items, ...) -- CPU_ReadMem(4 bytes @ 0xE000E004) - Data: 01 00 00 00  returns 0x01 (0001ms, 0678ms total)
T24DC 000:940 JLINK_WriteMem(0xE0001000, 0x001C Bytes, ...) - Data: 01 00 00 00 00 00 00 00 00 00 00 00 00 00 00 00 ... -- CPU_WriteMem(28 bytes @ 0xE0001000)  returns 0x1C (0001ms, 0679ms total)
T24DC 000:941 JLINK_ReadMem (0xE0001000, 0x001C Bytes, ...) -- CPU_ReadMem(28 bytes @ 0xE0001000) - Data: 01 00 00 40 00 00 00 00 00 00 00 00 00 00 00 00 ...  returns 0x00 (0001ms, 0680ms total)
T24DC 000:942 JLINK_ReadReg(R15 (PC))  returns 0x080001B0 (0000ms, 0680ms total)
T24DC 000:942 JLINK_ReadReg(XPSR)  returns 0x01000000 (0000ms, 0680ms total)
T24DC 001:008 JLINK_SetResetType(JLINKARM_RESET_TYPE_NORMAL)  returns JLINKARM_RESET_TYPE_NORMAL (0000ms, 0680ms total)
T24DC 001:008 JLINK_Reset() -- CPU_WriteMem(4 bytes @ 0xE000EDF0) -- CPU_WriteMem(4 bytes @ 0xE000EDFC) >0x35 TIF> -- CPU_WriteMem(4 bytes @ 0xE000ED0C) -- CPU_ReadMem(4 bytes @ 0xE000EDF0) -- CPU_ReadMem(4 bytes @ 0xE000EDF0) -- CPU_WriteMem(4 bytes @ 0xE000EDF0) -- CPU_WriteMem(4 bytes @ 0xE000EDFC) -- CPU is running -- CPU_ReadMem(4 bytes @ 0xE000EDF0) -- CPU_WriteMem(4 bytes @ 0xE0002000) -- CPU_ReadMem(4 bytes @ 0xE000EDFC) -- CPU_ReadMem(4 bytes @ 0xE0001000) (0024ms, 0704ms total)
T24DC 001:032 JLINK_ReadReg(R15 (PC))  returns 0x080001B0 (0000ms, 0704ms total)
T24DC 001:032 JLINK_ReadReg(XPSR)  returns 0x01000000 (0000ms, 0704ms total)
T24DC 001:032 JLINK_ReadMem (0x08000130, 0x003C Bytes, ...) -- CPU_ReadMem(128 bytes @ 0x08000100) -- Updating C cache (128 bytes @ 0x08000100) -- Read from C cache (60 bytes @ 0x08000130) - Data: 00 F0 02 F8 00 F0 2C F8 0A A0 90 E8 00 0C 82 44 ...  returns 0x00 (0002ms, 0706ms total)
T24DC 001:034 JLINK_ReadMem (0x0800016C, 0x003C Bytes, ...) -- CPU_ReadMem(64 bytes @ 0x08000180) -- Updating C cache (64 bytes @ 0x08000180) -- Read from C cache (60 bytes @ 0x0800016C) - Data: 00 23 00 24 00 25 00 26 10 3A 28 BF 78 C1 FB D8 ...  returns 0x00 (0001ms, 0707ms total)
T24DC 001:035 JLINK_ReadMem (0x080001A8, 0x003C Bytes, ...) -- CPU_ReadMem(64 bytes @ 0x080001C0) -- Updating C cache (64 bytes @ 0x080001C0) -- Read from C cache (60 bytes @ 0x080001A8) - Data: 03 BC 00 F0 57 F8 00 00 09 48 80 47 09 48 00 47 ...  returns 0x00 (0001ms, 0708ms total)
T24DC 001:148 JLINK_ReadMem (0x40010C00, 0x000C Bytes, ...) -- CPU_ReadMem(12 bytes @ 0x40010C00) - Data: 44 44 48 44 44 44 44 44 00 00 00 00  returns 0x00 (0001ms, 0709ms total)
T24DC 001:149 JLINK_ReadMem (0x40010C0C, 0x0004 Bytes, ...) -- CPU_ReadMem(4 bytes @ 0x40010C0C) - Data: 10 00 00 00  returns 0x00 (0001ms, 0710ms total)
T24DC 001:150 JLINK_ReadMem (0x40010C18, 0x0004 Bytes, ...) -- CPU_ReadMem(4 bytes @ 0x40010C18) - Data: 00 00 00 00  returns 0x00 (0001ms, 0711ms total)
T24DC 001:201 JLINK_ReadMem (0x40000400, 0x0010 Bytes, ...) -- CPU_ReadMem(16 bytes @ 0x40000400) - Data: 00 00 00 00 00 00 00 00 00 00 00 00 00 00 00 00  returns 0x00 (0000ms, 0711ms total)
T24DC 001:201 JLINK_ReadMem (0x40000410, 0x0004 Bytes, ...) -- CPU_ReadMem(4 bytes @ 0x40000410) - Data: 00 00 00 00  returns 0x00 (0001ms, 0712ms total)
T24DC 001:202 JLINK_ReadMem (0x40000418, 0x0014 Bytes, ...) -- CPU_ReadMem(20 bytes @ 0x40000418) - Data: 00 00 00 00 00 00 00 00 00 00 00 00 00 00 00 00 ...  returns 0x00 (0001ms, 0713ms total)
T24DC 001:203 JLINK_ReadMem (0x4000042C, 0x0004 Bytes, ...) -- CPU_ReadMem(4 bytes @ 0x4000042C) - Data: 00 00 00 00  returns 0x00 (0001ms, 0714ms total)
T24DC 001:204 JLINK_ReadMem (0x40000434, 0x000C Bytes, ...) -- CPU_ReadMem(12 bytes @ 0x40000434) - Data: 00 00 00 00 00 00 00 00 00 00 00 00  returns 0x00 (0001ms, 0715ms total)
T24DC 001:205 JLINK_ReadMem (0x40000440, 0x0004 Bytes, ...) -- CPU_ReadMem(4 bytes @ 0x40000440) - Data: 00 00 00 00  returns 0x00 (0001ms, 0716ms total)
T24DC 001:206 JLINK_ReadMem (0x40000448, 0x0004 Bytes, ...) -- CPU_ReadMem(4 bytes @ 0x40000448) - Data: 00 00 00 00  returns 0x00 (0001ms, 0717ms total)
T24DC 001:207 JLINK_ReadMem (0x4000044C, 0x0004 Bytes, ...) -- CPU_ReadMem(4 bytes @ 0x4000044C) - Data: 00 00 00 00  returns 0x00 (0001ms, 0718ms total)
T24DC 001:259 JLINK_ReadMem (0x40013400, 0x0010 Bytes, ...) -- CPU_ReadMem(16 bytes @ 0x40013400) - Data: 00 00 00 00 00 00 00 00 00 00 00 00 00 00 00 00  returns 0x00 (0001ms, 0719ms total)
T24DC 001:260 JLINK_ReadMem (0x40013410, 0x0004 Bytes, ...) -- CPU_ReadMem(4 bytes @ 0x40013410) - Data: 00 00 00 00  returns 0x00 (0001ms, 0720ms total)
T24DC 001:261 JLINK_ReadMem (0x40013418, 0x0014 Bytes, ...) -- CPU_ReadMem(20 bytes @ 0x40013418) - Data: 00 00 00 00 00 00 00 00 00 00 00 00 00 00 00 00 ...  returns 0x00 (0001ms, 0721ms total)
T24DC 001:262 JLINK_ReadMem (0x4001342C, 0x0004 Bytes, ...) -- CPU_ReadMem(4 bytes @ 0x4001342C) - Data: 00 00 00 00  returns 0x00 (0001ms, 0722ms total)
T24DC 001:263 JLINK_ReadMem (0x40013430, 0x0004 Bytes, ...) -- CPU_ReadMem(4 bytes @ 0x40013430) - Data: 00 00 00 00  returns 0x00 (0001ms, 0723ms total)
T24DC 001:264 JLINK_ReadMem (0x40013434, 0x000C Bytes, ...) -- CPU_ReadMem(12 bytes @ 0x40013434) - Data: 00 00 00 00 00 00 00 00 00 00 00 00  returns 0x00 (0001ms, 0724ms total)
T24DC 001:265 JLINK_ReadMem (0x40013440, 0x0004 Bytes, ...) -- CPU_ReadMem(4 bytes @ 0x40013440) - Data: 00 00 00 00  returns 0x00 (0001ms, 0725ms total)
T24DC 001:266 JLINK_ReadMem (0x40013444, 0x0004 Bytes, ...) -- CPU_ReadMem(4 bytes @ 0x40013444) - Data: 00 00 00 00  returns 0x00 (0001ms, 0726ms total)
T24DC 001:267 JLINK_ReadMem (0x40013448, 0x0004 Bytes, ...) -- CPU_ReadMem(4 bytes @ 0x40013448) - Data: 00 00 00 00  returns 0x00 (0001ms, 0727ms total)
T24DC 001:268 JLINK_ReadMem (0x4001344C, 0x0004 Bytes, ...) -- CPU_ReadMem(4 bytes @ 0x4001344C) - Data: 00 00 00 00  returns 0x00 (0001ms, 0728ms total)
T2454 003:081 JLINK_SetBPEx(Addr = 0x08000A34, Type = 0xFFFFFFF2)  returns 0x00000001 (0001ms, 0729ms total)
T2454 003:082 JLINK_SetBPEx(Addr = 0x08000396, Type = 0xFFFFFFF2)  returns 0x00000002 (0000ms, 0729ms total)
T2454 003:082 JLINK_SetBPEx(Addr = 0x0800033E, Type = 0xFFFFFFF2)  returns 0x00000003 (0000ms, 0729ms total)
T2454 003:082 JLINK_SetBPEx(Addr = 0x080002D6, Type = 0xFFFFFFF2)  returns 0x00000004 (0000ms, 0729ms total)
T2454 003:082 JLINK_SetBPEx(Addr = 0x08000272, Type = 0xFFFFFFF2)  returns 0x00000005 (0000ms, 0729ms total)
T2454 003:082 JLINK_Go() -- CPU_WriteMem(4 bytes @ 0xE0002000) -- CPU_WriteMem(4 bytes @ 0xE0002008) -- CPU_WriteMem(4 bytes @ 0xE0002000) -- CPU_WriteMem(4 bytes @ 0xE000200C) -- CPU_WriteMem(4 bytes @ 0xE0002000) -- CPU_WriteMem(4 bytes @ 0xE0002010) -- CPU_WriteMem(4 bytes @ 0xE0002000) -- CPU_WriteMem(4 bytes @ 0xE0002014) -- CPU_WriteMem(4 bytes @ 0xE0002000) -- CPU_WriteMem(4 bytes @ 0xE0002018) -- CPU_WriteMem(4 bytes @ 0xE000201C) -- CPU_WriteMem(4 bytes @ 0xE0001004) (0014ms, 0743ms total)
T2454 003:196 JLINK_IsHalted()  returns TRUE (0003ms, 0746ms total)
T2454 003:199 JLINK_Halt()  returns 0x00 (0000ms, 0743ms total)
T2454 003:199 JLINK_IsHalted()  returns TRUE (0000ms, 0743ms total)
T2454 003:199 JLINK_IsHalted()  returns TRUE (0000ms, 0743ms total)
T2454 003:199 JLINK_IsHalted()  returns TRUE (0000ms, 0743ms total)
T2454 003:199 JLINK_ReadReg(R15 (PC))  returns 0x08000A34 (0000ms, 0743ms total)
T2454 003:199 JLINK_ReadReg(XPSR)  returns 0x21000000 (0000ms, 0743ms total)
T2454 003:199 JLINK_ClrBPEx(BPHandle = 0x00000001)  returns 0x00 (0000ms, 0743ms total)
T2454 003:199 JLINK_ClrBPEx(BPHandle = 0x00000002)  returns 0x00 (0000ms, 0743ms total)
T2454 003:199 JLINK_ClrBPEx(BPHandle = 0x00000003)  returns 0x00 (0000ms, 0743ms total)
T2454 003:199 JLINK_ClrBPEx(BPHandle = 0x00000004)  returns 0x00 (0000ms, 0743ms total)
T2454 003:199 JLINK_ClrBPEx(BPHandle = 0x00000005)  returns 0x00 (0000ms, 0743ms total)
T2454 003:199 JLINK_ReadMemU32(0xE000ED30, 0x0001 Items, ...) -- CPU_ReadMem(4 bytes @ 0xE000ED30) - Data: 03 00 00 00  returns 0x01 (0001ms, 0744ms total)
T2454 003:200 JLINK_ReadMemU32(0xE0001028, 0x0001 Items, ...) -- CPU_ReadMem(4 bytes @ 0xE0001028) - Data: 00 00 00 00  returns 0x01 (0001ms, 0745ms total)
T2454 003:201 JLINK_ReadMemU32(0xE0001038, 0x0001 Items, ...) -- CPU_ReadMem(4 bytes @ 0xE0001038) - Data: 00 02 00 00  returns 0x01 (0001ms, 0746ms total)
T2454 003:202 JLINK_ReadMemU32(0xE0001048, 0x0001 Items, ...) -- CPU_ReadMem(4 bytes @ 0xE0001048) - Data: 00 00 00 00  returns 0x01 (0001ms, 0747ms total)
T2454 003:203 JLINK_ReadMemU32(0xE0001058, 0x0001 Items, ...) -- CPU_ReadMem(4 bytes @ 0xE0001058) - Data: 00 00 00 00  returns 0x01 (0001ms, 0748ms total)
T2454 003:204 JLINK_ReadReg(R0)  returns 0x200000D8 (0000ms, 0748ms total)
T2454 003:204 JLINK_ReadReg(R1)  returns 0x200002D8 (0000ms, 0748ms total)
T2454 003:204 JLINK_ReadReg(R2)  returns 0x200002D8 (0000ms, 0748ms total)
T2454 003:204 JLINK_ReadReg(R3)  returns 0x200002D8 (0000ms, 0748ms total)
T2454 003:204 JLINK_ReadReg(R4)  returns 0x00000000 (0000ms, 0748ms total)
T2454 003:204 JLINK_ReadReg(R5)  returns 0x20000078 (0000ms, 0748ms total)
T2454 003:204 JLINK_ReadReg(R6)  returns 0x00000000 (0000ms, 0748ms total)
T2454 003:204 JLINK_ReadReg(R7)  returns 0x00000000 (0000ms, 0748ms total)
T2454 003:204 JLINK_ReadReg(R8)  returns 0x00000000 (0000ms, 0748ms total)
T2454 003:204 JLINK_ReadReg(R9)  returns 0x20000160 (0000ms, 0748ms total)
T2454 003:204 JLINK_ReadReg(R10)  returns 0x08000A54 (0000ms, 0748ms total)
T2454 003:204 JLINK_ReadReg(R11)  returns 0x00000000 (0000ms, 0748ms total)
T2454 003:204 JLINK_ReadReg(R12)  returns 0x200000B8 (0000ms, 0748ms total)
T2454 003:204 JLINK_ReadReg(R13 (SP))  returns 0x200006D8 (0000ms, 0748ms total)
T2454 003:204 JLINK_ReadReg(R14)  returns 0x0800019F (0000ms, 0748ms total)
T2454 003:204 JLINK_ReadReg(R15 (PC))  returns 0x08000A34 (0000ms, 0748ms total)
T2454 003:204 JLINK_ReadReg(XPSR)  returns 0x21000000 (0000ms, 0748ms total)
T2454 003:204 JLINK_ReadReg(MSP)  returns 0x200006D8 (0000ms, 0748ms total)
T2454 003:204 JLINK_ReadReg(PSP)  returns 0x20001000 (0000ms, 0748ms total)
T2454 003:204 JLINK_ReadReg(CFBP)  returns 0x00000000 (0000ms, 0748ms total)
T24DC 003:204 JLINK_ReadMemU32(0xE0001004, 0x0001 Items, ...) -- CPU_ReadMem(4 bytes @ 0xE0001004) - Data: CA 24 00 00  returns 0x01 (0002ms, 0750ms total)
T24DC 003:206 JLINK_ReadMem (0x40000400, 0x0010 Bytes, ...) -- CPU_ReadMem(16 bytes @ 0x40000400) - Data: 00 00 00 00 00 00 00 00 00 00 00 00 00 00 00 00  returns 0x00 (0001ms, 0751ms total)
T24DC 003:207 JLINK_ReadMem (0x40000410, 0x0004 Bytes, ...) -- CPU_ReadMem(4 bytes @ 0x40000410) - Data: 00 00 00 00  returns 0x00 (0001ms, 0752ms total)
T24DC 003:208 JLINK_ReadMem (0x40000418, 0x0014 Bytes, ...) -- CPU_ReadMem(20 bytes @ 0x40000418) - Data: 00 00 00 00 00 00 00 00 00 00 00 00 00 00 00 00 ...  returns 0x00 (0001ms, 0753ms total)
T24DC 003:209 JLINK_ReadMem (0x4000042C, 0x0004 Bytes, ...) -- CPU_ReadMem(4 bytes @ 0x4000042C) - Data: 00 00 00 00  returns 0x00 (0001ms, 0754ms total)
T24DC 003:210 JLINK_ReadMem (0x40000434, 0x000C Bytes, ...) -- CPU_ReadMem(12 bytes @ 0x40000434) - Data: 00 00 00 00 00 00 00 00 00 00 00 00  returns 0x00 (0001ms, 0755ms total)
T24DC 003:211 JLINK_ReadMem (0x40000440, 0x0004 Bytes, ...) -- CPU_ReadMem(4 bytes @ 0x40000440) - Data: 00 00 00 00  returns 0x00 (0001ms, 0756ms total)
T24DC 003:212 JLINK_ReadMem (0x40000448, 0x0004 Bytes, ...) -- CPU_ReadMem(4 bytes @ 0x40000448) - Data: 00 00 00 00  returns 0x00 (0001ms, 0757ms total)
T24DC 003:213 JLINK_ReadMem (0x4000044C, 0x0004 Bytes, ...) -- CPU_ReadMem(4 bytes @ 0x4000044C) - Data: 00 00 00 00  returns 0x00 (0001ms, 0758ms total)
T24DC 003:216 JLINK_ReadMem (0x40013400, 0x0010 Bytes, ...) -- CPU_ReadMem(16 bytes @ 0x40013400) - Data: 00 00 00 00 00 00 00 00 00 00 00 00 00 00 00 00  returns 0x00 (0001ms, 0759ms total)
T24DC 003:217 JLINK_ReadMem (0x40013410, 0x0004 Bytes, ...) -- CPU_ReadMem(4 bytes @ 0x40013410) - Data: 00 00 00 00  returns 0x00 (0001ms, 0760ms total)
T24DC 003:218 JLINK_ReadMem (0x40013418, 0x0014 Bytes, ...) -- CPU_ReadMem(20 bytes @ 0x40013418) - Data: 00 00 00 00 00 00 00 00 00 00 00 00 00 00 00 00 ...  returns 0x00 (0001ms, 0761ms total)
T24DC 003:219 JLINK_ReadMem (0x4001342C, 0x0004 Bytes, ...) -- CPU_ReadMem(4 bytes @ 0x4001342C) - Data: 00 00 00 00  returns 0x00 (0001ms, 0762ms total)
T24DC 003:220 JLINK_ReadMem (0x40013430, 0x0004 Bytes, ...) -- CPU_ReadMem(4 bytes @ 0x40013430) - Data: 00 00 00 00  returns 0x00 (0001ms, 0763ms total)
T24DC 003:221 JLINK_ReadMem (0x40013434, 0x000C Bytes, ...) -- CPU_ReadMem(12 bytes @ 0x40013434) - Data: 00 00 00 00 00 00 00 00 00 00 00 00  returns 0x00 (0001ms, 0764ms total)
T24DC 003:222 JLINK_ReadMem (0x40013440, 0x0004 Bytes, ...) -- CPU_ReadMem(4 bytes @ 0x40013440) - Data: 00 00 00 00  returns 0x00 (0001ms, 0765ms total)
T24DC 003:223 JLINK_ReadMem (0x40013444, 0x0004 Bytes, ...) -- CPU_ReadMem(4 bytes @ 0x40013444) - Data: 00 00 00 00  returns 0x00 (0001ms, 0766ms total)
T24DC 003:224 JLINK_ReadMem (0x40013448, 0x0004 Bytes, ...) -- CPU_ReadMem(4 bytes @ 0x40013448) - Data: 00 00 00 00  returns 0x00 (0001ms, 0767ms total)
T24DC 003:225 JLINK_ReadMem (0x4001344C, 0x0004 Bytes, ...) -- CPU_ReadMem(4 bytes @ 0x4001344C) - Data: 00 00 00 00  returns 0x00 (0001ms, 0768ms total)
T24DC 003:228 JLINK_ReadMem (0x40010C00, 0x000C Bytes, ...) -- CPU_ReadMem(12 bytes @ 0x40010C00) - Data: 44 44 48 44 44 44 44 44 00 00 00 00  returns 0x00 (0001ms, 0769ms total)
T24DC 003:229 JLINK_ReadMem (0x40010C0C, 0x0004 Bytes, ...) -- CPU_ReadMem(4 bytes @ 0x40010C0C) - Data: 10 00 00 00  returns 0x00 (0001ms, 0770ms total)
T24DC 003:230 JLINK_ReadMem (0x40010C18, 0x0004 Bytes, ...) -- CPU_ReadMem(4 bytes @ 0x40010C18) - Data: 00 00 00 00  returns 0x00 (0001ms, 0771ms total)
T24DC 003:236 JLINK_ReadMem (0x08000A32, 0x0002 Bytes, ...) -- CPU_ReadMem(64 bytes @ 0x08000A00) -- Updating C cache (64 bytes @ 0x08000A00) -- Read from C cache (2 bytes @ 0x08000A32) - Data: 70 47  returns 0x00 (0001ms, 0772ms total)
T24DC 003:237 JLINK_ReadMem (0x08000A34, 0x003C Bytes, ...) -- CPU_ReadMem(64 bytes @ 0x08000A40) -- Updating C cache (64 bytes @ 0x08000A40) -- Read from C cache (60 bytes @ 0x08000A34) - Data: FF F7 70 FF FF F7 A6 FF FF F7 98 FD 00 BF FE E7 ...  returns 0x00 (0001ms, 0773ms total)
T2454 004:468 JLINK_SetBPEx(Addr = 0x08000396, Type = 0xFFFFFFF2)  returns 0x00000006 (0001ms, 0774ms total)
T2454 004:469 JLINK_SetBPEx(Addr = 0x0800033E, Type = 0xFFFFFFF2)  returns 0x00000007 (0000ms, 0774ms total)
T2454 004:469 JLINK_SetBPEx(Addr = 0x080002D6, Type = 0xFFFFFFF2)  returns 0x00000008 (0000ms, 0774ms total)
T2454 004:469 JLINK_SetBPEx(Addr = 0x08000272, Type = 0xFFFFFFF2)  returns 0x00000009 (0000ms, 0774ms total)
T2454 004:469 JLINK_Go() -- CPU_WriteMem(4 bytes @ 0xE0002000) -- CPU_WriteMem(4 bytes @ 0xE0002000) -- CPU_WriteMem(4 bytes @ 0xE0002000) -- CPU_WriteMem(4 bytes @ 0xE0002000) -- CPU_WriteMem(4 bytes @ 0xE0002008) -- CPU_WriteMem(4 bytes @ 0xE000200C) -- CPU_WriteMem(4 bytes @ 0xE0002010) -- CPU_WriteMem(4 bytes @ 0xE0002014) -- CPU_WriteMem(4 bytes @ 0xE0002018) (0011ms, 0785ms total)
T2454 004:580 JLINK_IsHalted()  returns FALSE (0001ms, 0786ms total)
T2454 004:681 JLINK_IsHalted()  returns FALSE (0001ms, 0786ms total)
T2454 004:782 JLINK_IsHalted()  returns FALSE (0001ms, 0786ms total)
T2454 004:883 JLINK_IsHalted()  returns FALSE (0001ms, 0786ms total)
T2454 004:984 JLINK_IsHalted()  returns FALSE (0001ms, 0786ms total)
T2454 005:085 JLINK_ReadMemU32(0xE0001004, 0x0001 Items, ...) -- CPU is running -- CPU_ReadMem(4 bytes @ 0xE0001004) - Data: 1B BF 99 02  returns 0x01 (0001ms, 0786ms total)
T24DC 005:086 JLINK_ReadMem (0x40000400, 0x0010 Bytes, ...) -- CPU is running -- CPU_ReadMem(16 bytes @ 0x40000400) - Data: 01 00 00 00 00 00 00 00 00 00 00 00 01 00 00 00  returns 0x00 (0001ms, 0787ms total)
T24DC 005:087 JLINK_ReadMem (0x40000410, 0x0004 Bytes, ...) -- CPU is running -- CPU_ReadMem(4 bytes @ 0x40000410) - Data: 00 00 00 00  returns 0x00 (0001ms, 0788ms total)
T24DC 005:088 JLINK_ReadMem (0x40000418, 0x0014 Bytes, ...) -- CPU is running -- CPU_ReadMem(20 bytes @ 0x40000418) - Data: 00 00 00 00 00 00 00 00 00 00 00 00 C2 04 00 00 ...  returns 0x00 (0001ms, 0789ms total)
T24DC 005:089 JLINK_ReadMem (0x4000042C, 0x0004 Bytes, ...) -- CPU is running -- CPU_ReadMem(4 bytes @ 0x4000042C) - Data: D0 07 00 00  returns 0x00 (0001ms, 0790ms total)
T24DC 005:090 JLINK_ReadMem (0x40000434, 0x000C Bytes, ...) -- CPU is running -- CPU_ReadMem(12 bytes @ 0x40000434) - Data: 00 00 00 00 00 00 00 00 00 00 00 00  returns 0x00 (0001ms, 0791ms total)
T24DC 005:091 JLINK_ReadMem (0x40000440, 0x0004 Bytes, ...) -- CPU is running -- CPU_ReadMem(4 bytes @ 0x40000440) - Data: 00 00 00 00  returns 0x00 (0001ms, 0792ms total)
T24DC 005:092 JLINK_ReadMem (0x40000448, 0x0004 Bytes, ...) -- CPU is running -- CPU_ReadMem(4 bytes @ 0x40000448) - Data: 00 00 00 00  returns 0x00 (0001ms, 0793ms total)
T24DC 005:093 JLINK_ReadMem (0x4000044C, 0x0004 Bytes, ...) -- CPU is running -- CPU_ReadMem(4 bytes @ 0x4000044C) - Data: 01 00 00 00  returns 0x00 (0001ms, 0794ms total)
T24DC 005:098 JLINK_ReadMem (0x40013400, 0x0010 Bytes, ...) -- CPU is running -- CPU_ReadMem(16 bytes @ 0x40013400) - Data: 01 00 00 00 00 00 00 00 00 00 00 00 01 00 00 00  returns 0x00 (0002ms, 0796ms total)
T24DC 005:100 JLINK_ReadMem (0x40013410, 0x0004 Bytes, ...) -- CPU is running -- CPU_ReadMem(4 bytes @ 0x40013410) - Data: 1E 00 00 00  returns 0x00 (0001ms, 0797ms total)
T24DC 005:101 JLINK_ReadMem (0x40013418, 0x0014 Bytes, ...) -- CPU is running -- CPU_ReadMem(20 bytes @ 0x40013418) - Data: 00 00 00 00 00 00 00 00 00 00 00 00 9C 03 00 00 ...  returns 0x00 (0001ms, 0798ms total)
T24DC 005:102 JLINK_ReadMem (0x4001342C, 0x0004 Bytes, ...) -- CPU is running -- CPU_ReadMem(4 bytes @ 0x4001342C) - Data: D0 07 00 00  returns 0x00 (0001ms, 0799ms total)
T24DC 005:103 JLINK_ReadMem (0x40013430, 0x0004 Bytes, ...) -- CPU is running -- CPU_ReadMem(4 bytes @ 0x40013430) - Data: D8 00 00 00  returns 0x00 (0001ms, 0800ms total)
T24DC 005:104 JLINK_ReadMem (0x40013434, 0x000C Bytes, ...) -- CPU is running -- CPU_ReadMem(12 bytes @ 0x40013434) - Data: 00 00 00 00 00 00 00 00 00 00 00 00  returns 0x00 (0001ms, 0801ms total)
T24DC 005:105 JLINK_ReadMem (0x40013440, 0x0004 Bytes, ...) -- CPU is running -- CPU_ReadMem(4 bytes @ 0x40013440) - Data: 00 00 00 00  returns 0x00 (0001ms, 0802ms total)
T24DC 005:106 JLINK_ReadMem (0x40013444, 0x0004 Bytes, ...) -- CPU is running -- CPU_ReadMem(4 bytes @ 0x40013444) - Data: 00 00 00 00  returns 0x00 (0001ms, 0803ms total)
T24DC 005:107 JLINK_ReadMem (0x40013448, 0x0004 Bytes, ...) -- CPU is running -- CPU_ReadMem(4 bytes @ 0x40013448) - Data: 00 00 00 00  returns 0x00 (0001ms, 0804ms total)
T24DC 005:108 JLINK_ReadMem (0x4001344C, 0x0004 Bytes, ...) -- CPU is running -- CPU_ReadMem(4 bytes @ 0x4001344C) - Data: 01 00 00 00  returns 0x00 (0001ms, 0805ms total)
T24DC 005:146 JLINK_ReadMem (0x40010C00, 0x000C Bytes, ...) -- CPU is running -- CPU_ReadMem(12 bytes @ 0x40010C00) - Data: 44 44 48 44 33 44 44 44 F3 FC 00 00  returns 0x00 (0002ms, 0807ms total)
T24DC 005:148 JLINK_ReadMem (0x40010C0C, 0x0004 Bytes, ...) -- CPU is running -- CPU_ReadMem(4 bytes @ 0x40010C0C) - Data: 10 00 00 00  returns 0x00 (0001ms, 0808ms total)
T24DC 005:149 JLINK_ReadMem (0x40010C18, 0x0004 Bytes, ...) -- CPU is running -- CPU_ReadMem(4 bytes @ 0x40010C18) - Data: 00 00 00 00  returns 0x00 (0001ms, 0809ms total)
T2454 005:153 JLINK_IsHalted()  returns FALSE (0001ms, 0810ms total)
T2454 005:254 JLINK_IsHalted()  returns FALSE (0001ms, 0810ms total)
T2454 005:355 JLINK_IsHalted()  returns FALSE (0001ms, 0810ms total)
T2454 005:456 JLINK_IsHalted()  returns FALSE (0001ms, 0810ms total)
T2454 005:557 JLINK_IsHalted()  returns FALSE (0002ms, 0811ms total)
T2454 005:659 JLINK_ReadMemU32(0xE0001004, 0x0001 Items, ...) -- CPU is running -- CPU_ReadMem(4 bytes @ 0xE0001004) - Data: 51 8F 10 05  returns 0x01 (0001ms, 0810ms total)
T24DC 005:661 JLINK_ReadMem (0x40000400, 0x0010 Bytes, ...) -- CPU is running -- CPU_ReadMem(16 bytes @ 0x40000400) - Data: 01 00 00 00 00 00 00 00 00 00 00 00 01 00 00 00  returns 0x00 (0001ms, 0811ms total)
T24DC 005:662 JLINK_ReadMem (0x40000410, 0x0004 Bytes, ...) -- CPU is running -- CPU_ReadMem(4 bytes @ 0x40000410) - Data: 1E 00 00 00  returns 0x00 (0001ms, 0812ms total)
T24DC 005:663 JLINK_ReadMem (0x40000418, 0x0014 Bytes, ...) -- CPU is running -- CPU_ReadMem(20 bytes @ 0x40000418) - Data: 00 00 00 00 00 00 00 00 00 00 00 00 70 01 00 00 ...  returns 0x00 (0001ms, 0813ms total)
T24DC 005:664 JLINK_ReadMem (0x4000042C, 0x0004 Bytes, ...) -- CPU is running -- CPU_ReadMem(4 bytes @ 0x4000042C) - Data: D0 07 00 00  returns 0x00 (0001ms, 0814ms total)
T24DC 005:665 JLINK_ReadMem (0x40000434, 0x000C Bytes, ...) -- CPU is running -- CPU_ReadMem(12 bytes @ 0x40000434) - Data: 00 00 00 00 00 00 00 00 00 00 00 00  returns 0x00 (0001ms, 0815ms total)
T24DC 005:666 JLINK_ReadMem (0x40000440, 0x0004 Bytes, ...) -- CPU is running -- CPU_ReadMem(4 bytes @ 0x40000440) - Data: 00 00 00 00  returns 0x00 (0001ms, 0816ms total)
T24DC 005:667 JLINK_ReadMem (0x40000448, 0x0004 Bytes, ...) -- CPU is running -- CPU_ReadMem(4 bytes @ 0x40000448) - Data: 00 00 00 00  returns 0x00 (0001ms, 0817ms total)
T24DC 005:668 JLINK_ReadMem (0x4000044C, 0x0004 Bytes, ...) -- CPU is running -- CPU_ReadMem(4 bytes @ 0x4000044C) - Data: 01 00 00 00  returns 0x00 (0001ms, 0818ms total)
T24DC 005:672 JLINK_ReadMem (0x40013400, 0x0010 Bytes, ...) -- CPU is running -- CPU_ReadMem(16 bytes @ 0x40013400) - Data: 01 00 00 00 00 00 00 00 00 00 00 00 01 00 00 00  returns 0x00 (0001ms, 0819ms total)
T24DC 005:673 JLINK_ReadMem (0x40013410, 0x0004 Bytes, ...) -- CPU is running -- CPU_ReadMem(4 bytes @ 0x40013410) - Data: 1E 00 00 00  returns 0x00 (0001ms, 0820ms total)
T24DC 005:674 JLINK_ReadMem (0x40013418, 0x0014 Bytes, ...) -- CPU is running -- CPU_ReadMem(20 bytes @ 0x40013418) - Data: 00 00 00 00 00 00 00 00 00 00 00 00 1B 05 00 00 ...  returns 0x00 (0001ms, 0821ms total)
T24DC 005:675 JLINK_ReadMem (0x4001342C, 0x0004 Bytes, ...) -- CPU is running -- CPU_ReadMem(4 bytes @ 0x4001342C) - Data: D0 07 00 00  returns 0x00 (0001ms, 0822ms total)
T24DC 005:676 JLINK_ReadMem (0x40013430, 0x0004 Bytes, ...) -- CPU is running -- CPU_ReadMem(4 bytes @ 0x40013430) - Data: D8 00 00 00  returns 0x00 (0001ms, 0823ms total)
T24DC 005:677 JLINK_ReadMem (0x40013434, 0x000C Bytes, ...) -- CPU is running -- CPU_ReadMem(12 bytes @ 0x40013434) - Data: 00 00 00 00 00 00 00 00 00 00 00 00  returns 0x00 (0001ms, 0824ms total)
T24DC 005:678 JLINK_ReadMem (0x40013440, 0x0004 Bytes, ...) -- CPU is running -- CPU_ReadMem(4 bytes @ 0x40013440) - Data: 00 00 00 00  returns 0x00 (0001ms, 0825ms total)
T24DC 005:679 JLINK_ReadMem (0x40013444, 0x0004 Bytes, ...) -- CPU is running -- CPU_ReadMem(4 bytes @ 0x40013444) - Data: 00 00 00 00  returns 0x00 (0001ms, 0826ms total)
T24DC 005:680 JLINK_ReadMem (0x40013448, 0x0004 Bytes, ...) -- CPU is running -- CPU_ReadMem(4 bytes @ 0x40013448) - Data: 00 00 00 00  returns 0x00 (0001ms, 0827ms total)
T24DC 005:681 JLINK_ReadMem (0x4001344C, 0x0004 Bytes, ...) -- CPU is running -- CPU_ReadMem(4 bytes @ 0x4001344C) - Data: 01 00 00 00  returns 0x00 (0001ms, 0828ms total)
T24DC 005:688 JLINK_ReadMem (0x40010C00, 0x000C Bytes, ...) -- CPU is running -- CPU_ReadMem(12 bytes @ 0x40010C00) - Data: 44 44 48 44 33 44 44 44 F3 FD 00 00  returns 0x00 (0001ms, 0829ms total)
T24DC 005:689 JLINK_ReadMem (0x40010C0C, 0x0004 Bytes, ...) -- CPU is running -- CPU_ReadMem(4 bytes @ 0x40010C0C) - Data: 10 01 00 00  returns 0x00 (0001ms, 0830ms total)
T24DC 005:690 JLINK_ReadMem (0x40010C18, 0x0004 Bytes, ...) -- CPU is running -- CPU_ReadMem(4 bytes @ 0x40010C18) - Data: 00 00 00 00  returns 0x00 (0001ms, 0831ms total)
T2454 005:696 JLINK_IsHalted()  returns FALSE (0001ms, 0832ms total)
T2454 005:797 JLINK_IsHalted()  returns FALSE (0001ms, 0832ms total)
T2454 005:898 JLINK_IsHalted()  returns FALSE (0001ms, 0832ms total)
T2454 005:999 JLINK_IsHalted()  returns FALSE (0001ms, 0832ms total)
T2454 006:100 JLINK_IsHalted()  returns FALSE (0001ms, 0832ms total)
T2454 006:201 JLINK_ReadMemU32(0xE0001004, 0x0001 Items, ...) -- CPU is running -- CPU_ReadMem(4 bytes @ 0xE0001004) - Data: B1 2B 64 07  returns 0x01 (0001ms, 0832ms total)
T24DC 006:202 JLINK_ReadMem (0x40000400, 0x0010 Bytes, ...) -- CPU is running -- CPU_ReadMem(16 bytes @ 0x40000400) - Data: 01 00 00 00 00 00 00 00 00 00 00 00 01 00 00 00  returns 0x00 (0001ms, 0833ms total)
T24DC 006:203 JLINK_ReadMem (0x40000410, 0x0004 Bytes, ...) -- CPU is running -- CPU_ReadMem(4 bytes @ 0x40000410) - Data: 1E 00 00 00  returns 0x00 (0001ms, 0834ms total)
T24DC 006:204 JLINK_ReadMem (0x40000418, 0x0014 Bytes, ...) -- CPU is running -- CPU_ReadMem(20 bytes @ 0x40000418) - Data: 00 00 00 00 00 00 00 00 00 00 00 00 AA 05 00 00 ...  returns 0x00 (0001ms, 0835ms total)
T24DC 006:205 JLINK_ReadMem (0x4000042C, 0x0004 Bytes, ...) -- CPU is running -- CPU_ReadMem(4 bytes @ 0x4000042C) - Data: D0 07 00 00  returns 0x00 (0001ms, 0836ms total)
T24DC 006:206 JLINK_ReadMem (0x40000434, 0x000C Bytes, ...) -- CPU is running -- CPU_ReadMem(12 bytes @ 0x40000434) - Data: 00 00 00 00 00 00 00 00 00 00 00 00  returns 0x00 (0001ms, 0837ms total)
T24DC 006:207 JLINK_ReadMem (0x40000440, 0x0004 Bytes, ...) -- CPU is running -- CPU_ReadMem(4 bytes @ 0x40000440) - Data: 00 00 00 00  returns 0x00 (0001ms, 0838ms total)
T24DC 006:208 JLINK_ReadMem (0x40000448, 0x0004 Bytes, ...) -- CPU is running -- CPU_ReadMem(4 bytes @ 0x40000448) - Data: 00 00 00 00  returns 0x00 (0001ms, 0839ms total)
T24DC 006:209 JLINK_ReadMem (0x4000044C, 0x0004 Bytes, ...) -- CPU is running -- CPU_ReadMem(4 bytes @ 0x4000044C) - Data: 01 00 00 00  returns 0x00 (0001ms, 0840ms total)
T24DC 006:212 JLINK_ReadMem (0x40013400, 0x0010 Bytes, ...) -- CPU is running -- CPU_ReadMem(16 bytes @ 0x40013400) - Data: 01 00 00 00 00 00 00 00 00 00 00 00 01 00 00 00  returns 0x00 (0001ms, 0841ms total)
T24DC 006:213 JLINK_ReadMem (0x40013410, 0x0004 Bytes, ...) -- CPU is running -- CPU_ReadMem(4 bytes @ 0x40013410) - Data: 1E 00 00 00  returns 0x00 (0001ms, 0842ms total)
T24DC 006:214 JLINK_ReadMem (0x40013418, 0x0014 Bytes, ...) -- CPU is running -- CPU_ReadMem(20 bytes @ 0x40013418) - Data: 00 00 00 00 00 00 00 00 00 00 00 00 2B 05 00 00 ...  returns 0x00 (0001ms, 0843ms total)
T24DC 006:215 JLINK_ReadMem (0x4001342C, 0x0004 Bytes, ...) -- CPU is running -- CPU_ReadMem(4 bytes @ 0x4001342C) - Data: D0 07 00 00  returns 0x00 (0001ms, 0844ms total)
T24DC 006:216 JLINK_ReadMem (0x40013430, 0x0004 Bytes, ...) -- CPU is running -- CPU_ReadMem(4 bytes @ 0x40013430) - Data: D8 00 00 00  returns 0x00 (0001ms, 0845ms total)
T24DC 006:217 JLINK_ReadMem (0x40013434, 0x000C Bytes, ...) -- CPU is running -- CPU_ReadMem(12 bytes @ 0x40013434) - Data: 00 00 00 00 00 00 00 00 00 00 00 00  returns 0x00 (0001ms, 0846ms total)
T24DC 006:218 JLINK_ReadMem (0x40013440, 0x0004 Bytes, ...) -- CPU is running -- CPU_ReadMem(4 bytes @ 0x40013440) - Data: 00 00 00 00  returns 0x00 (0001ms, 0847ms total)
T24DC 006:219 JLINK_ReadMem (0x40013444, 0x0004 Bytes, ...) -- CPU is running -- CPU_ReadMem(4 bytes @ 0x40013444) - Data: 00 00 00 00  returns 0x00 (0001ms, 0848ms total)
T24DC 006:220 JLINK_ReadMem (0x40013448, 0x0004 Bytes, ...) -- CPU is running -- CPU_ReadMem(4 bytes @ 0x40013448) - Data: 00 00 00 00  returns 0x00 (0001ms, 0849ms total)
T24DC 006:221 JLINK_ReadMem (0x4001344C, 0x0004 Bytes, ...) -- CPU is running -- CPU_ReadMem(4 bytes @ 0x4001344C) - Data: 01 00 00 00  returns 0x00 (0001ms, 0850ms total)
T24DC 006:228 JLINK_ReadMem (0x40010C00, 0x000C Bytes, ...) -- CPU is running -- CPU_ReadMem(12 bytes @ 0x40010C00) - Data: 44 44 48 44 33 44 44 44 F3 FD 00 00  returns 0x00 (0002ms, 0852ms total)
T24DC 006:230 JLINK_ReadMem (0x40010C0C, 0x0004 Bytes, ...) -- CPU is running -- CPU_ReadMem(4 bytes @ 0x40010C0C) - Data: 10 01 00 00  returns 0x00 (0001ms, 0853ms total)
T24DC 006:231 JLINK_ReadMem (0x40010C18, 0x0004 Bytes, ...) -- CPU is running -- CPU_ReadMem(4 bytes @ 0x40010C18) - Data: 00 00 00 00  returns 0x00 (0001ms, 0854ms total)
T2454 006:233 JLINK_IsHalted()  returns FALSE (0001ms, 0855ms total)
T2454 006:334 JLINK_IsHalted()  returns FALSE (0001ms, 0855ms total)
T2454 006:435 JLINK_IsHalted()  returns FALSE (0001ms, 0855ms total)
T2454 006:536 JLINK_IsHalted()  returns FALSE (0001ms, 0855ms total)
T2454 006:637 JLINK_IsHalted()  returns FALSE (0002ms, 0856ms total)
T2454 006:739 JLINK_ReadMemU32(0xE0001004, 0x0001 Items, ...) -- CPU is running -- CPU_ReadMem(4 bytes @ 0xE0001004) - Data: B5 0C B3 09  returns 0x01 (0001ms, 0855ms total)
T24DC 006:740 JLINK_ReadMem (0x40000400, 0x0010 Bytes, ...) -- CPU is running -- CPU_ReadMem(16 bytes @ 0x40000400) - Data: 01 00 00 00 00 00 00 00 00 00 00 00 01 00 00 00  returns 0x00 (0001ms, 0856ms total)
T24DC 006:741 JLINK_ReadMem (0x40000410, 0x0004 Bytes, ...) -- CPU is running -- CPU_ReadMem(4 bytes @ 0x40000410) - Data: 1E 00 00 00  returns 0x00 (0001ms, 0857ms total)
T24DC 006:742 JLINK_ReadMem (0x40000418, 0x0014 Bytes, ...) -- CPU is running -- CPU_ReadMem(20 bytes @ 0x40000418) - Data: 00 00 00 00 00 00 00 00 00 00 00 00 0C 02 00 00 ...  returns 0x00 (0001ms, 0858ms total)
T24DC 006:743 JLINK_ReadMem (0x4000042C, 0x0004 Bytes, ...) -- CPU is running -- CPU_ReadMem(4 bytes @ 0x4000042C) - Data: D0 07 00 00  returns 0x00 (0001ms, 0859ms total)
T24DC 006:744 JLINK_ReadMem (0x40000434, 0x000C Bytes, ...) -- CPU is running -- CPU_ReadMem(12 bytes @ 0x40000434) - Data: 00 00 00 00 00 00 00 00 00 00 00 00  returns 0x00 (0001ms, 0860ms total)
T24DC 006:745 JLINK_ReadMem (0x40000440, 0x0004 Bytes, ...) -- CPU is running -- CPU_ReadMem(4 bytes @ 0x40000440) - Data: 00 00 00 00  returns 0x00 (0001ms, 0861ms total)
T24DC 006:746 JLINK_ReadMem (0x40000448, 0x0004 Bytes, ...) -- CPU is running -- CPU_ReadMem(4 bytes @ 0x40000448) - Data: 00 00 00 00  returns 0x00 (0001ms, 0862ms total)
T24DC 006:747 JLINK_ReadMem (0x4000044C, 0x0004 Bytes, ...) -- CPU is running -- CPU_ReadMem(4 bytes @ 0x4000044C) - Data: 01 00 00 00  returns 0x00 (0001ms, 0863ms total)
T24DC 006:750 JLINK_ReadMem (0x40013400, 0x0010 Bytes, ...) -- CPU is running -- CPU_ReadMem(16 bytes @ 0x40013400) - Data: 01 00 00 00 00 00 00 00 00 00 00 00 01 00 00 00  returns 0x00 (0001ms, 0864ms total)
T24DC 006:751 JLINK_ReadMem (0x40013410, 0x0004 Bytes, ...) -- CPU is running -- CPU_ReadMem(4 bytes @ 0x40013410) - Data: 1E 00 00 00  returns 0x00 (0001ms, 0865ms total)
T24DC 006:752 JLINK_ReadMem (0x40013418, 0x0014 Bytes, ...) -- CPU is running -- CPU_ReadMem(20 bytes @ 0x40013418) - Data: 00 00 00 00 00 00 00 00 00 00 00 00 1D 05 00 00 ...  returns 0x00 (0001ms, 0866ms total)
T24DC 006:753 JLINK_ReadMem (0x4001342C, 0x0004 Bytes, ...) -- CPU is running -- CPU_ReadMem(4 bytes @ 0x4001342C) - Data: D0 07 00 00  returns 0x00 (0001ms, 0867ms total)
T24DC 006:754 JLINK_ReadMem (0x40013430, 0x0004 Bytes, ...) -- CPU is running -- CPU_ReadMem(4 bytes @ 0x40013430) - Data: D8 00 00 00  returns 0x00 (0001ms, 0868ms total)
T24DC 006:755 JLINK_ReadMem (0x40013434, 0x000C Bytes, ...) -- CPU is running -- CPU_ReadMem(12 bytes @ 0x40013434) - Data: 00 00 00 00 00 00 00 00 00 00 00 00  returns 0x00 (0001ms, 0869ms total)
T24DC 006:756 JLINK_ReadMem (0x40013440, 0x0004 Bytes, ...) -- CPU is running -- CPU_ReadMem(4 bytes @ 0x40013440) - Data: 00 00 00 00  returns 0x00 (0001ms, 0870ms total)
T24DC 006:757 JLINK_ReadMem (0x40013444, 0x0004 Bytes, ...) -- CPU is running -- CPU_ReadMem(4 bytes @ 0x40013444) - Data: 00 00 00 00  returns 0x00 (0001ms, 0871ms total)
T24DC 006:758 JLINK_ReadMem (0x40013448, 0x0004 Bytes, ...) -- CPU is running -- CPU_ReadMem(4 bytes @ 0x40013448) - Data: 00 00 00 00  returns 0x00 (0001ms, 0872ms total)
T24DC 006:759 JLINK_ReadMem (0x4001344C, 0x0004 Bytes, ...) -- CPU is running -- CPU_ReadMem(4 bytes @ 0x4001344C) - Data: 01 00 00 00  returns 0x00 (0001ms, 0873ms total)
T24DC 006:766 JLINK_ReadMem (0x40010C00, 0x000C Bytes, ...) -- CPU is running -- CPU_ReadMem(12 bytes @ 0x40010C00) - Data: 44 44 48 44 33 44 44 44 F3 FC 00 00  returns 0x00 (0001ms, 0874ms total)
T24DC 006:767 JLINK_ReadMem (0x40010C0C, 0x0004 Bytes, ...) -- CPU is running -- CPU_ReadMem(4 bytes @ 0x40010C0C) - Data: 10 00 00 00  returns 0x00 (0001ms, 0875ms total)
T24DC 006:768 JLINK_ReadMem (0x40010C18, 0x0004 Bytes, ...) -- CPU is running -- CPU_ReadMem(4 bytes @ 0x40010C18) - Data: 00 00 00 00  returns 0x00 (0002ms, 0877ms total)
T2454 006:773 JLINK_IsHalted()  returns FALSE (0001ms, 0878ms total)
T2454 006:874 JLINK_IsHalted()  returns FALSE (0001ms, 0878ms total)
T2454 006:975 JLINK_IsHalted()  returns FALSE (0001ms, 0878ms total)
T2454 007:076 JLINK_IsHalted()  returns FALSE (0001ms, 0878ms total)
T2454 007:177 JLINK_IsHalted()  returns FALSE (0001ms, 0878ms total)
T2454 007:278 JLINK_ReadMemU32(0xE0001004, 0x0001 Items, ...) -- CPU is running -- CPU_ReadMem(4 bytes @ 0xE0001004) - Data: 04 66 03 0C  returns 0x01 (0001ms, 0878ms total)
T24DC 007:279 JLINK_ReadMem (0x40000400, 0x0010 Bytes, ...) -- CPU is running -- CPU_ReadMem(16 bytes @ 0x40000400) - Data: 01 00 00 00 00 00 00 00 00 00 00 00 01 00 00 00  returns 0x00 (0001ms, 0879ms total)
T24DC 007:280 JLINK_ReadMem (0x40000410, 0x0004 Bytes, ...) -- CPU is running -- CPU_ReadMem(4 bytes @ 0x40000410) - Data: 1E 00 00 00  returns 0x00 (0001ms, 0880ms total)
T24DC 007:281 JLINK_ReadMem (0x40000418, 0x0014 Bytes, ...) -- CPU is running -- CPU_ReadMem(20 bytes @ 0x40000418) - Data: 00 00 00 00 00 00 00 00 00 00 00 00 43 06 00 00 ...  returns 0x00 (0001ms, 0881ms total)
T24DC 007:282 JLINK_ReadMem (0x4000042C, 0x0004 Bytes, ...) -- CPU is running -- CPU_ReadMem(4 bytes @ 0x4000042C) - Data: D0 07 00 00  returns 0x00 (0001ms, 0882ms total)
T24DC 007:283 JLINK_ReadMem (0x40000434, 0x000C Bytes, ...) -- CPU is running -- CPU_ReadMem(12 bytes @ 0x40000434) - Data: 00 00 00 00 00 00 00 00 00 00 00 00  returns 0x00 (0001ms, 0883ms total)
T24DC 007:284 JLINK_ReadMem (0x40000440, 0x0004 Bytes, ...) -- CPU is running -- CPU_ReadMem(4 bytes @ 0x40000440) - Data: 00 00 00 00  returns 0x00 (0001ms, 0884ms total)
T24DC 007:285 JLINK_ReadMem (0x40000448, 0x0004 Bytes, ...) -- CPU is running -- CPU_ReadMem(4 bytes @ 0x40000448) - Data: 00 00 00 00  returns 0x00 (0001ms, 0885ms total)
T24DC 007:286 JLINK_ReadMem (0x4000044C, 0x0004 Bytes, ...) -- CPU is running -- CPU_ReadMem(4 bytes @ 0x4000044C) - Data: 01 00 00 00  returns 0x00 (0001ms, 0886ms total)
T24DC 007:289 JLINK_ReadMem (0x40013400, 0x0010 Bytes, ...) -- CPU is running -- CPU_ReadMem(16 bytes @ 0x40013400) - Data: 01 00 00 00 00 00 00 00 00 00 00 00 01 00 00 00  returns 0x00 (0001ms, 0887ms total)
T24DC 007:290 JLINK_ReadMem (0x40013410, 0x0004 Bytes, ...) -- CPU is running -- CPU_ReadMem(4 bytes @ 0x40013410) - Data: 1E 00 00 00  returns 0x00 (0001ms, 0888ms total)
T24DC 007:291 JLINK_ReadMem (0x40013418, 0x0014 Bytes, ...) -- CPU is running -- CPU_ReadMem(20 bytes @ 0x40013418) - Data: 00 00 00 00 00 00 00 00 00 00 00 00 1C 05 00 00 ...  returns 0x00 (0001ms, 0889ms total)
T24DC 007:292 JLINK_ReadMem (0x4001342C, 0x0004 Bytes, ...) -- CPU is running -- CPU_ReadMem(4 bytes @ 0x4001342C) - Data: D0 07 00 00  returns 0x00 (0001ms, 0890ms total)
T24DC 007:293 JLINK_ReadMem (0x40013430, 0x0004 Bytes, ...) -- CPU is running -- CPU_ReadMem(4 bytes @ 0x40013430) - Data: D8 00 00 00  returns 0x00 (0001ms, 0891ms total)
T24DC 007:294 JLINK_ReadMem (0x40013434, 0x000C Bytes, ...) -- CPU is running -- CPU_ReadMem(12 bytes @ 0x40013434) - Data: 00 00 00 00 00 00 00 00 00 00 00 00  returns 0x00 (0001ms, 0892ms total)
T24DC 007:295 JLINK_ReadMem (0x40013440, 0x0004 Bytes, ...) -- CPU is running -- CPU_ReadMem(4 bytes @ 0x40013440) - Data: 00 00 00 00  returns 0x00 (0001ms, 0893ms total)
T24DC 007:296 JLINK_ReadMem (0x40013444, 0x0004 Bytes, ...) -- CPU is running -- CPU_ReadMem(4 bytes @ 0x40013444) - Data: 00 00 00 00  returns 0x00 (0001ms, 0894ms total)
T24DC 007:297 JLINK_ReadMem (0x40013448, 0x0004 Bytes, ...) -- CPU is running -- CPU_ReadMem(4 bytes @ 0x40013448) - Data: 00 00 00 00  returns 0x00 (0001ms, 0895ms total)
T24DC 007:298 JLINK_ReadMem (0x4001344C, 0x0004 Bytes, ...) -- CPU is running -- CPU_ReadMem(4 bytes @ 0x4001344C) - Data: 01 00 00 00  returns 0x00 (0001ms, 0896ms total)
T24DC 007:317 JLINK_ReadMem (0x40010C00, 0x000C Bytes, ...) -- CPU is running -- CPU_ReadMem(12 bytes @ 0x40010C00) - Data: 44 44 48 44 33 44 44 44 F3 FC 00 00  returns 0x00 (0002ms, 0898ms total)
T24DC 007:319 JLINK_ReadMem (0x40010C0C, 0x0004 Bytes, ...) -- CPU is running -- CPU_ReadMem(4 bytes @ 0x40010C0C) - Data: 10 00 00 00  returns 0x00 (0001ms, 0899ms total)
T24DC 007:320 JLINK_ReadMem (0x40010C18, 0x0004 Bytes, ...) -- CPU is running -- CPU_ReadMem(4 bytes @ 0x40010C18) - Data: 00 00 00 00  returns 0x00 (0002ms, 0901ms total)
T2454 007:324 JLINK_IsHalted()  returns FALSE (0001ms, 0902ms total)
T2454 007:425 JLINK_IsHalted()  returns FALSE (0001ms, 0902ms total)
T2454 007:526 JLINK_IsHalted()  returns FALSE (0001ms, 0902ms total)
T2454 007:627 JLINK_IsHalted()  returns FALSE (0001ms, 0902ms total)
T2454 007:728 JLINK_IsHalted()  returns FALSE (0002ms, 0903ms total)
T2454 007:830 JLINK_ReadMemU32(0xE0001004, 0x0001 Items, ...) -- CPU is running -- CPU_ReadMem(4 bytes @ 0xE0001004) - Data: 1E 85 61 0E  returns 0x01 (0001ms, 0902ms total)
T24DC 007:831 JLINK_ReadMem (0x40000400, 0x0010 Bytes, ...) -- CPU is running -- CPU_ReadMem(16 bytes @ 0x40000400) - Data: 01 00 00 00 00 00 00 00 00 00 00 00 01 00 00 00  returns 0x00 (0001ms, 0903ms total)
T24DC 007:832 JLINK_ReadMem (0x40000410, 0x0004 Bytes, ...) -- CPU is running -- CPU_ReadMem(4 bytes @ 0x40000410) - Data: 1E 00 00 00  returns 0x00 (0001ms, 0904ms total)
T24DC 007:833 JLINK_ReadMem (0x40000418, 0x0014 Bytes, ...) -- CPU is running -- CPU_ReadMem(20 bytes @ 0x40000418) - Data: 00 00 00 00 00 00 00 00 00 00 00 00 C1 02 00 00 ...  returns 0x00 (0001ms, 0905ms total)
T24DC 007:834 JLINK_ReadMem (0x4000042C, 0x0004 Bytes, ...) -- CPU is running -- CPU_ReadMem(4 bytes @ 0x4000042C) - Data: D0 07 00 00  returns 0x00 (0001ms, 0906ms total)
T24DC 007:835 JLINK_ReadMem (0x40000434, 0x000C Bytes, ...) -- CPU is running -- CPU_ReadMem(12 bytes @ 0x40000434) - Data: 00 00 00 00 00 00 00 00 00 00 00 00  returns 0x00 (0001ms, 0907ms total)
T24DC 007:836 JLINK_ReadMem (0x40000440, 0x0004 Bytes, ...) -- CPU is running -- CPU_ReadMem(4 bytes @ 0x40000440) - Data: 00 00 00 00  returns 0x00 (0001ms, 0908ms total)
T24DC 007:837 JLINK_ReadMem (0x40000448, 0x0004 Bytes, ...) -- CPU is running -- CPU_ReadMem(4 bytes @ 0x40000448) - Data: 00 00 00 00  returns 0x00 (0001ms, 0909ms total)
T24DC 007:838 JLINK_ReadMem (0x4000044C, 0x0004 Bytes, ...) -- CPU is running -- CPU_ReadMem(4 bytes @ 0x4000044C) - Data: 01 00 00 00  returns 0x00 (0001ms, 0910ms total)
T24DC 007:840 JLINK_ReadMem (0x40013400, 0x0010 Bytes, ...) -- CPU is running -- CPU_ReadMem(16 bytes @ 0x40013400) - Data: 01 00 00 00 00 00 00 00 00 00 00 00 01 00 00 00  returns 0x00 (0001ms, 0911ms total)
T24DC 007:841 JLINK_ReadMem (0x40013410, 0x0004 Bytes, ...) -- CPU is running -- CPU_ReadMem(4 bytes @ 0x40013410) - Data: 1E 00 00 00  returns 0x00 (0001ms, 0912ms total)
T24DC 007:842 JLINK_ReadMem (0x40013418, 0x0014 Bytes, ...) -- CPU is running -- CPU_ReadMem(20 bytes @ 0x40013418) - Data: 00 00 00 00 00 00 00 00 00 00 00 00 A9 05 00 00 ...  returns 0x00 (0001ms, 0913ms total)
T24DC 007:843 JLINK_ReadMem (0x4001342C, 0x0004 Bytes, ...) -- CPU is running -- CPU_ReadMem(4 bytes @ 0x4001342C) - Data: D0 07 00 00  returns 0x00 (0001ms, 0914ms total)
T24DC 007:844 JLINK_ReadMem (0x40013430, 0x0004 Bytes, ...) -- CPU is running -- CPU_ReadMem(4 bytes @ 0x40013430) - Data: D8 00 00 00  returns 0x00 (0001ms, 0915ms total)
T24DC 007:845 JLINK_ReadMem (0x40013434, 0x000C Bytes, ...) -- CPU is running -- CPU_ReadMem(12 bytes @ 0x40013434) - Data: 00 00 00 00 00 00 00 00 00 00 00 00  returns 0x00 (0001ms, 0916ms total)
T24DC 007:846 JLINK_ReadMem (0x40013440, 0x0004 Bytes, ...) -- CPU is running -- CPU_ReadMem(4 bytes @ 0x40013440) - Data: 00 00 00 00  returns 0x00 (0001ms, 0917ms total)
T24DC 007:847 JLINK_ReadMem (0x40013444, 0x0004 Bytes, ...) -- CPU is running -- CPU_ReadMem(4 bytes @ 0x40013444) - Data: 00 00 00 00  returns 0x00 (0001ms, 0918ms total)
T24DC 007:848 JLINK_ReadMem (0x40013448, 0x0004 Bytes, ...) -- CPU is running -- CPU_ReadMem(4 bytes @ 0x40013448) - Data: 00 00 00 00  returns 0x00 (0001ms, 0919ms total)
T24DC 007:849 JLINK_ReadMem (0x4001344C, 0x0004 Bytes, ...) -- CPU is running -- CPU_ReadMem(4 bytes @ 0x4001344C) - Data: 01 00 00 00  returns 0x00 (0001ms, 0920ms total)
T24DC 007:856 JLINK_ReadMem (0x40010C00, 0x000C Bytes, ...) -- CPU is running -- CPU_ReadMem(12 bytes @ 0x40010C00) - Data: 44 44 48 44 33 44 44 44 F3 FD 00 00  returns 0x00 (0001ms, 0921ms total)
T24DC 007:857 JLINK_ReadMem (0x40010C0C, 0x0004 Bytes, ...) -- CPU is running -- CPU_ReadMem(4 bytes @ 0x40010C0C) - Data: 10 01 00 00  returns 0x00 (0001ms, 0922ms total)
T24DC 007:858 JLINK_ReadMem (0x40010C18, 0x0004 Bytes, ...) -- CPU is running -- CPU_ReadMem(4 bytes @ 0x40010C18) - Data: 00 00 00 00  returns 0x00 (0001ms, 0923ms total)
T2454 007:863 JLINK_IsHalted()  returns FALSE (0001ms, 0924ms total)
T2454 007:964 JLINK_IsHalted()  returns FALSE (0001ms, 0924ms total)
T2454 008:065 JLINK_IsHalted()  returns FALSE (0001ms, 0924ms total)
T2454 008:166 JLINK_IsHalted()  returns FALSE (0001ms, 0924ms total)
T2454 008:267 JLINK_IsHalted()  returns FALSE (0001ms, 0924ms total)
T2454 008:368 JLINK_ReadMemU32(0xE0001004, 0x0001 Items, ...) -- CPU is running -- CPU_ReadMem(4 bytes @ 0xE0001004) - Data: 0B B7 B0 10  returns 0x01 (0001ms, 0924ms total)
T24DC 008:369 JLINK_ReadMem (0x40000400, 0x0010 Bytes, ...) -- CPU is running -- CPU_ReadMem(16 bytes @ 0x40000400) - Data: 01 00 00 00 00 00 00 00 00 00 00 00 01 00 00 00  returns 0x00 (0001ms, 0925ms total)
T24DC 008:370 JLINK_ReadMem (0x40000410, 0x0004 Bytes, ...) -- CPU is running -- CPU_ReadMem(4 bytes @ 0x40000410) - Data: 1E 00 00 00  returns 0x00 (0001ms, 0926ms total)
T24DC 008:371 JLINK_ReadMem (0x40000418, 0x0014 Bytes, ...) -- CPU is running -- CPU_ReadMem(20 bytes @ 0x40000418) - Data: 00 00 00 00 00 00 00 00 00 00 00 00 F5 06 00 00 ...  returns 0x00 (0001ms, 0927ms total)
T24DC 008:372 JLINK_ReadMem (0x4000042C, 0x0004 Bytes, ...) -- CPU is running -- CPU_ReadMem(4 bytes @ 0x4000042C) - Data: D0 07 00 00  returns 0x00 (0001ms, 0928ms total)
T24DC 008:373 JLINK_ReadMem (0x40000434, 0x000C Bytes, ...) -- CPU is running -- CPU_ReadMem(12 bytes @ 0x40000434) - Data: 00 00 00 00 00 00 00 00 00 00 00 00  returns 0x00 (0001ms, 0929ms total)
T24DC 008:374 JLINK_ReadMem (0x40000440, 0x0004 Bytes, ...) -- CPU is running -- CPU_ReadMem(4 bytes @ 0x40000440) - Data: 00 00 00 00  returns 0x00 (0001ms, 0930ms total)
T24DC 008:375 JLINK_ReadMem (0x40000448, 0x0004 Bytes, ...) -- CPU is running -- CPU_ReadMem(4 bytes @ 0x40000448) - Data: 00 00 00 00  returns 0x00 (0001ms, 0931ms total)
T24DC 008:376 JLINK_ReadMem (0x4000044C, 0x0004 Bytes, ...) -- CPU is running -- CPU_ReadMem(4 bytes @ 0x4000044C) - Data: 01 00 00 00  returns 0x00 (0001ms, 0932ms total)
T24DC 008:379 JLINK_ReadMem (0x40013400, 0x0010 Bytes, ...) -- CPU is running -- CPU_ReadMem(16 bytes @ 0x40013400) - Data: 01 00 00 00 00 00 00 00 00 00 00 00 01 00 00 00  returns 0x00 (0001ms, 0933ms total)
T24DC 008:380 JLINK_ReadMem (0x40013410, 0x0004 Bytes, ...) -- CPU is running -- CPU_ReadMem(4 bytes @ 0x40013410) - Data: 1E 00 00 00  returns 0x00 (0001ms, 0934ms total)
